freq	v_in	v_out
10	0.1697	0.64
20	6.7	1.29
30	8.98	1.69
40	9.43	1.7
50	9.37	1.79
80	10.02	1.87
100	10	1.89
200	9.9	1.89
400	10.3	1.95
500	10.28	1.93
700	10.32	1.95
900	10.2	1.92
1000	10.4	1.91
5000	11.0	2.08
10000	8.5	1.94
15000	12.5	1.8
17000	12.6	1.74
20000	12.95	2.14
24000	13.26	1.65
25000	12.645	1.63
